
**** 01/12/25 17:47:25 ********* PSpice 9.2 (Mar 2000) ******** ID# 1 ********

 ** Profile: "SCHEMATIC1-p4_sim"  [ C:\Users\Public\Music\p4-SCHEMATIC1-p4_sim.sim ] 


 ****     CIRCUIT DESCRIPTION


******************************************************************************




** Creating circuit file "p4-SCHEMATIC1-p4_sim.sim.cir" 
** WARNING: THIS AUTOMATICALLY GENERATED FILE MAY BE OVERWRITTEN BY SUBSEQUENT SIMULATIONS

*Libraries: 
* Local Libraries :
.LIB ".\p4.lib" 
* From [PSPICE NETLIST] section of C:\Program Files\Orcad\PSpice\PSpice.ini file:
.lib "nom.lib" 

*Analysis directives: 
.AC DEC 10 10 10k
.PROBE V(*) I(*) W(*) D(*) NOISE(*) 
.INC ".\p4-SCHEMATIC1.net" 



**** INCLUDING p4-SCHEMATIC1.net ****
* source P4
Q_Q1         N00618 N07511 N00801 BC368 
R_RC         N00618 N00892  0.471k  
R_RE         0 N00801  1k  
V_Vs         N00877 0 DC 0Vdc AC 1Vac 
R_RB1         VIN N00892  400k  
R_RB         VIN N07511  0.4k  
R_RB2         0 VIN  200k  
R_RL         0 VOUT  0.1k  
R_Rs         N00877 N00850  100  
C_C1         N00850 VIN  1000U  
V_VCC         N00892 0 10Vdc
C_C2         N00618 VOUT  1000U  
C_C3         N00801 0  1000U  

**** RESUMING p4-SCHEMATIC1-p4_sim.sim.cir ****
.END

**** 01/12/25 17:47:25 ********* PSpice 9.2 (Mar 2000) ******** ID# 1 ********

 ** Profile: "SCHEMATIC1-p4_sim"  [ C:\Users\Public\Music\p4-SCHEMATIC1-p4_sim.sim ] 


 ****     BJT MODEL PARAMETERS


******************************************************************************




               BC368           
               NPN             
          IS   14.060000E-15 
          BF  250            
          NF    1            
         VAF  100            
         IKF    4.103        
         ISE  137.200000E-15 
          NE    1.468        
          BR    4.541        
          NR    1            
         IKR    1.701        
         ISC   44.130000E-15 
          NC    1.471        
          NK     .5507       
          RC     .091        
         CJE  156.000000E-12 
         VJE     .5          
         MJE     .3333       
         CJC   52.240000E-12 
         VJC     .5          
         MJC     .3333       
          TF  964.800000E-12 
         XTF    1.001000E+03 
         VTF   10            
         ITF  595.3          
          TR   10.000000E-09 
         XTB    1.5          
          CN    2.42         
           D     .87         


**** 01/12/25 17:47:25 ********* PSpice 9.2 (Mar 2000) ******** ID# 1 ********

 ** Profile: "SCHEMATIC1-p4_sim"  [ C:\Users\Public\Music\p4-SCHEMATIC1-p4_sim.sim ] 


 ****     SMALL SIGNAL BIAS SOLUTION       TEMPERATURE =   27.000 DEG C


******************************************************************************



 NODE   VOLTAGE     NODE   VOLTAGE     NODE   VOLTAGE     NODE   VOLTAGE


(  VIN)    2.0830  ( VOUT)    0.0000  (N00618)    9.3329 (N00801)    1.4257     

(N00850)    0.0000 (N00877)    0.0000 (N00892)   10.0000 (N07511)    2.0792 




    VOLTAGE SOURCE CURRENTS
    NAME         CURRENT

    V_Vs         0.000E+00
    V_VCC       -1.436E-03

    TOTAL POWER DISSIPATION   1.44E-02  WATTS



          JOB CONCLUDED

          TOTAL JOB TIME            0.00
